<Qucs Dataset 0.0.19>
<indep time 11>
  +0.00000000000000000000e+00
  +1.00000000000000004792e-04
  +2.00000000000000009584e-04
  +3.00000000000000027929e-04
  +4.00000000000000019169e-04
  +5.00000000000000010408e-04
  +6.00000000000000055858e-04
  +6.99999999999999992888e-04
  +8.00000000000000038337e-04
  +9.00000000000000083787e-04
  +1.00000000000000002082e-03
</indep>
<dep Pr1.Vt time>
  -5.33215201749736422698e+00
  -5.33215201749646094953e+00
  -5.33215201749651246388e+00
  -5.33215201749657818908e+00
  -5.33215201749663769704e+00
  -5.33215201749670519860e+00
  -5.33215201749675227205e+00
  -5.33215201749680378640e+00
  -5.33215201749684641896e+00
  -5.33215201749689615696e+00
  -5.33215201749693967770e+00
</dep>
<dep Pr2.Vt time>
  +1.50000000000000000000e+01
  +1.50000000000000000000e+01
  +1.50000000000000000000e+01
  +1.50000000000000000000e+01
  +1.50000000000000000000e+01
  +1.50000000000000000000e+01
  +1.50000000000000000000e+01
  +1.50000000000000000000e+01
  +1.50000000000000000000e+01
  +1.50000000000000000000e+01
  +1.50000000000000000000e+01
</dep>
<dep V2.It time>
  +0.00000000000000000000e+00
  +0.00000000000000000000e+00
  +0.00000000000000000000e+00
  +0.00000000000000000000e+00
  +0.00000000000000000000e+00
  +0.00000000000000000000e+00
  +0.00000000000000000000e+00
  +0.00000000000000000000e+00
  +0.00000000000000000000e+00
  +0.00000000000000000000e+00
  +0.00000000000000000000e+00
</dep>
<dep V4.It time>
  -1.25334817608053409980e-03
  -1.25334817608053431665e-03
  -1.25334817608053431665e-03
  -1.25334817608053431665e-03
  -1.25334817608053431665e-03
  -1.25334817608053431665e-03
  -1.25334817608053431665e-03
  -1.25334817608053431665e-03
  -1.25334817608053431665e-03
  -1.25334817608053431665e-03
  -1.25334817608053431665e-03
</dep>
<dep V3.It time>
  -1.24261486530660106992e-03
  -1.24261486530656854385e-03
  -1.24261486530656811017e-03
  -1.24261486530656724281e-03
  -1.24261486530656724281e-03
  -1.24261486530656615861e-03
  -1.24261486530656594177e-03
  -1.24261486530656572493e-03
  -1.24261486530656550809e-03
  -1.24261486530656507440e-03
  -1.24261486530656464072e-03
</dep>
<dep _net2.Vt time>
  -1.29629588331115291888e-01
  -1.29629588330124306816e-01
  -1.29629588330173267652e-01
  -1.29629588330237882632e-01
  -1.29629588330297251808e-01
  -1.29629588330364531323e-01
  -1.29629588330409023511e-01
  -1.29629588330460093770e-01
  -1.29629588330502670823e-01
  -1.29629588330549938568e-01
  -1.29629588330591044576e-01
</dep>
<dep _net0.Vt time>
  +5.84023482380135875103e-17
  -2.75964323116335706149e-20
  -2.97814235383180535158e-20
  +1.60294385190537604293e-21
  +1.33309660413977491897e-20
  -4.34301628462038040503e-22
  +1.42312941789732914156e-20
  -1.06292701644870345441e-20
  -3.48463720019120673896e-20
  -1.87572112849700484461e-20
  -2.23469397725996195722e-20
</dep>
<dep _net4.Vt time>
  +7.50000000000000000000e+00
  +7.50000000000000000000e+00
  +7.50000000000000000000e+00
  +7.50000000000000000000e+00
  +7.50000000000000000000e+00
  +7.50000000000000000000e+00
  +7.50000000000000000000e+00
  +7.50000000000000000000e+00
  +7.50000000000000000000e+00
  +7.50000000000000000000e+00
  +7.50000000000000000000e+00
</dep>
<dep _net5.Vt time>
  -7.50000000000000000000e+00
  -7.50000000000000000000e+00
  -7.50000000000000000000e+00
  -7.50000000000000000000e+00
  -7.50000000000000000000e+00
  -7.50000000000000000000e+00
  -7.50000000000000000000e+00
  -7.50000000000000000000e+00
  -7.50000000000000000000e+00
  -7.50000000000000000000e+00
  -7.50000000000000000000e+00
</dep>
<dep _net3.Vt time>
  +5.20252242916624929592e+00
  +5.20252242916633633740e+00
  +5.20252242916633900194e+00
  +5.20252242916633989012e+00
  +5.20252242916634077829e+00
  +5.20252242916634077829e+00
  +5.20252242916634344283e+00
  +5.20252242916634344283e+00
  +5.20252242916634344283e+00
  +5.20252242916634610737e+00
  +5.20252242916634877190e+00
</dep>
<dep _net1.Vt time>
  -9.99999999999941690740e-04
  -1.00000000000000002082e-03
  -1.00000000000000002082e-03
  -1.00000000000000002082e-03
  -1.00000000000000002082e-03
  -1.00000000000000002082e-03
  -1.00000000000000002082e-03
  -1.00000000000000002082e-03
  -1.00000000000000002082e-03
  -1.00000000000000002082e-03
  -1.00000000000000002082e-03
</dep>
<indep Pr1.V 1>
  -5.33215201749515177454e+00
</indep>
<indep Pr2.V 1>
  +1.50000000000000000000e+01
</indep>
<indep V2.I 1>
  +0.00000000000000000000e+00
</indep>
<indep V4.I 1>
  -1.25334817608053431665e-03
</indep>
<indep V3.I 1>
  -1.24261486530656333968e-03
</indep>
<indep _net2.V 1>
  -1.29629588331149347979e-01
</indep>
<indep _net0.V 1>
  -2.11842092096711354145e-21
</indep>
<indep _net4.V 1>
  +7.50000000000000000000e+00
</indep>
<indep _net5.V 1>
  -7.50000000000000000000e+00
</indep>
<indep _net3.V 1>
  +5.20252242916400220452e+00
</indep>
<indep _net1.V 1>
  -1.00000000000000002082e-03
</indep>
